 ****** HSPICE -- F-2011.09 32-BIT (Sep  5 2011) winnt ******                   
  Copyright (C) 2011 Synopsys, Inc. All Rights Reserved.                        
  Unpublished-rights reserved under US copyright laws.
  This program is protected by law and is subject to the
  terms and conditions of the license agreement from Synopsys.
  Use of this program is your acceptance to be bound by the
  license agreement. HSPICE is the trademark of Synopsys, Inc.
  Input File: e:\ee\project\spice\1.0\opa_open_loop.sp                          
  Command line options: -i e:\ee\project\spice\1.0\opa_open_loop.sp -o e:\ee\project\spice\1.0\opa_open_loop.lis
  lic:  
  lic: FLEXlm: v10.8 
  lic: USER:   shabi                HOSTNAME: Kunlin-Yuquan 
  lic: HOSTID: "581122b93f59 346f24e5c2cc 005056c00001 005056c00008 00ffe567be1a
  
  lic: Using FLEXlm license file: 
  lic: E:\EE\A3-H$pice2011.09\hspice2011_crack\hspice2011_crack\license1.dat 
  lic: Checkout 1 hspice 
  lic: License/Maintenance for hspice will expire on 31-dec-2030/2030.12 
  lic: NODE LOCKED license on hostid "581122b93f59 346f24e5c2cc 005056c00001 005
 0
  lic:   
 Init: read install configuration file: E:\EE\Hspice\meta.cfg

 **warning**  runlvl smaller than 5, reset to 5  when accurate turned on

 **warning**  runlvl smaller than 5, reset to 5  when accurate turned on
1****** HSPICE -- F-2011.09 32-BIT (Sep  5 2011) winnt ******                   
 ******  
 .title opa_open_loop

  ******  circuit name directory
 circuit number to circuit name directory
   number circuitname                     definition         multiplier
        0 main circuit
        1 x1.                             opamp              1.00 
1****** HSPICE -- F-2011.09 32-BIT (Sep  5 2011) winnt ******                   
 ******  
 .title opa_open_loop

  ******  mos   model parameters tnom=  25.000 temp=  25.000 *****
 ***************************************************************************
 *** common model parameters  model name:   1:p08      model type:pmos   ***
 ***************************************************************************
     names  values   units     names  values   units     names  values   units
     -----  ------   -----     -----  ------   -----     -----  ------   -----

   1*** geometry parameters ***
       ld=  14.00n meters      lmlt=   1.00                wd=   0.    meters 
     wmlt=   1.00                xl=   0.    meters        xw=   0.    meters 
     lref=   0.    meters      wref=   0.    meters      lref=   0.    meters 
     wref=   0.    meters     xlref=   0.    meters     xwref=   0.    meters 
     lmin=   0.    meters      wmin=   0.    meters      lmax=   0.    meters 
     wmax=   0.    meters 

   2*** threshold voltage parameters ***
      vto=-700.00m volts        nss=   0.    1/cm**2      tpg=   1.00         
      phi= 800.00m volts      gamma= 570.00m v**0.5      bulk=  gnd           
    ngate=   0.    cm**3       nsub= 5.9e+16 1/cm**3   delvto=   0.    volts  

   3*** gate overlap capacitance parameters ***
     cgbo= 700.00p f/meter     cgdo= 220.00p f/meter     cgso= 220.00p f/meter
     meto=   0.    meters 

   4*** gate capacitance parameters ***
    capop=   2.00               cf1=   0.    volts        cf2= 100.00m volts  
      cf3=   1.00  volts        cf4=  50.00               cf5= 666.67m        
      cf6= 500.00               xqc= 500.00m              tox=  14.00n meters 
      cox=   2.47m f/m**2 

   5*** diffusion parasitic parameters ***
      acm=   0.                  is=  10.00f amps          js=   0.    a/m**2 
      jsw=   0.    amp/m        nds=   1.00               cbd=   0.    farad  
      cbs=   0.    farad         cj= 560.00u f/m**2      cjsw= 350.00p f/m    
   cjgate= 350.00p f/m           mj= 500.00m             mjsw= 350.00m        
       pb= 800.00m volts        php= 800.00m volts         tt=   0.    secs   
     hdif=   0.    meters      ldif=   0.    meters        rd=   0.    ohms   
       rs=   0.    ohms         rsh=   0.    ohms/sq       fc=   0.           
    alpha=   0.                 vcr=   0.    volts      iirat=   0.           
      rdc=   0.    ohms         rsc=   0.    ohms           n=   1.00         
     vnds=  -1.00  volts  

   6*** temperature effect parameters ***
     tlev=   0.               tlevc=   0.                  eg=   1.11  ev     
     gap1= 702.00u ev/deg      gap2=   1.11k deg          xti=   0.           
      bex=  -1.50               tcv=   0.    v/deg k      trd=   0.    /deg   
      trs=   0.    /deg         cta=   0.    /deg         ctp=   0.    /deg   

   7*** noise parameters ***
       kf=   0.                  af=   1.00              nlev=   2.00         
   gdsnoi=   1.00         

   ***  level  1  model parameters  ***

   lambda=  50.00m /v            kp=  50.00u a/v**2 
  
      
 **info** set option symb=1 internally to help for convergence.
 *****************************************************************
 ******  option summary
 ******
 runlvl  = 5         bypass  = 2         
  Opening plot unit= 79
 file=e:\ee\project\spice\1.0\opa_open_loop.pa0                                





 ****     small-signal transfer characteristics

        vvip       input resistance at vvip      output resistance at v(3)        v(3)/vvip     

      -5.0000m           1.000e+20                       2.3834                     0.     
      -4.9000m           1.000e+20                       2.3834                     0.     
      -4.8000m           1.000e+20                       2.3834                     0.     
      -4.7000m           1.000e+20                       2.3834                     0.     
      -4.6000m           1.000e+20                       2.3834                     0.     
      -4.5000m           1.000e+20                       2.3834                     0.     
      -4.4000m           1.000e+20                       2.3834                     0.     
      -4.3000m           1.000e+20                       2.3834                     0.     
      -4.2000m           1.000e+20                       2.3834                     0.     
      -4.1000m           1.000e+20                       2.3834                     0.     
      -4.0000m           1.000e+20                       2.3834                     0.     
      -3.9000m           1.000e+20                       2.3834                     0.     
      -3.8000m           1.000e+20                       2.3834                     0.     
      -3.7000m           1.000e+20                       2.3834                     0.     
      -3.6000m           1.000e+20                       2.3834                     0.     
      -3.5000m           1.000e+20                       2.3834                     0.     
      -3.4000m           1.000e+20                       2.3834                     0.     
      -3.3000m           1.000e+20                       2.3834                     0.     
      -3.2000m           1.000e+20                       2.3834                     0.     
      -3.1000m           1.000e+20                       2.3834                     0.     
      -3.0000m           1.000e+20                       2.3834                     0.     
      -2.9000m           1.000e+20                       2.3834                     0.     
      -2.8000m           1.000e+20                       2.3834                     0.     
      -2.7000m           1.000e+20                       2.3834                     0.     
      -2.6000m           1.000e+20                       2.3834                     0.     
      -2.5000m           1.000e+20                       2.3834                     0.     
      -2.4000m           1.000e+20                       2.3834                     0.     
      -2.3000m           1.000e+20                       2.3834                     0.     
      -2.2000m           1.000e+20                       2.3834                     0.     
      -2.1000m           1.000e+20                       2.3834                     0.     
      -2.0000m           1.000e+20                       2.3834                     0.     
      -1.9000m           1.000e+20                       2.3834                     0.     
      -1.8000m           1.000e+20                       2.3834                     0.     
      -1.7000m           1.000e+20                       2.3834                     0.     
      -1.6000m           1.000e+20                       2.3834                     0.     
      -1.5000m           1.000e+20                       2.3834                     0.     
      -1.4000m           1.000e+20                       2.3834                     0.     
      -1.3000m           1.000e+20                       2.3834                     0.     
      -1.2000m           1.000e+20                       2.3834                     0.     
      -1.1000m           1.000e+20                       2.3834                     0.     
      -1.0000m           1.000e+20                       2.3834                     0.     
    -900.0000u           1.000e+20                       2.3834                     0.     
    -800.0000u           1.000e+20                       2.3834                     0.     
    -700.0000u           1.000e+20                       2.3834                     0.     
    -600.0000u           1.000e+20                       2.3834                     0.     
    -500.0000u           1.000e+20                       2.3834                     0.     
    -400.0000u           1.000e+20                       2.3834                     0.     
    -300.0000u           1.000e+20                       2.3834                     0.     
    -200.0000u           1.000e+20                       2.3834                     0.     
    -100.0000u           1.000e+20                       2.3834                     0.     
    -8.674e-19           1.000e+20                       2.3834                     0.     
     100.0000u           1.000e+20                       2.3834                     0.     
     200.0000u           1.000e+20                       2.3834                     0.     
     300.0000u           1.000e+20                       2.3834                     0.     
     400.0000u           1.000e+20                       2.3834                     0.     
     500.0000u           1.000e+20                       2.3834                     0.     
     600.0000u           1.000e+20                       2.3834                     0.     
     700.0000u           1.000e+20                       2.3834                     0.     
     800.0000u           1.000e+20                       2.3834                     0.     
     900.0000u           1.000e+20                       2.3834                     0.     
       1.0000m           1.000e+20                       2.3834                     0.     
       1.1000m           1.000e+20                       2.3834                     0.     
       1.2000m           1.000e+20                       2.3834                     0.     
       1.3000m           1.000e+20                       2.3834                     0.     
       1.4000m           1.000e+20                       2.3834                     0.     
       1.5000m           1.000e+20                       2.3834                     0.     
       1.6000m           1.000e+20                       2.3834                     0.     
       1.7000m           1.000e+20                       2.3834                     0.     
       1.8000m           1.000e+20                       2.3834                     0.     
       1.9000m           1.000e+20                       2.3834                     0.     
       2.0000m           1.000e+20                       2.3834                     0.     
       2.1000m           1.000e+20                       2.3834                     0.     
       2.2000m           1.000e+20                       2.3834                     0.     
       2.3000m           1.000e+20                       2.3834                     0.     
       2.4000m           1.000e+20                       2.3834                     0.     
       2.5000m           1.000e+20                       2.3834                     0.     
       2.6000m           1.000e+20                       2.3834                     0.     
       2.7000m           1.000e+20                       2.3834                     0.     
       2.8000m           1.000e+20                       2.3834                     0.     
       2.9000m           1.000e+20                       2.3834                     0.     
       3.0000m           1.000e+20                       2.3834                     0.     
       3.1000m           1.000e+20                       2.3834                     0.     
       3.2000m           1.000e+20                       2.3834                     0.     
       3.3000m           1.000e+20                       2.3834                     0.     
       3.4000m           1.000e+20                       2.3834                     0.     
       3.5000m           1.000e+20                       2.3834                     0.     
       3.6000m           1.000e+20                       2.3834                     0.     
       3.7000m           1.000e+20                       2.3834                     0.     
       3.8000m           1.000e+20                       2.3834                     0.     
       3.9000m           1.000e+20                       2.3834                     0.     
       4.0000m           1.000e+20                       2.3834                     0.     
       4.1000m           1.000e+20                       2.3834                     0.     
       4.2000m           1.000e+20                       2.3834                     0.     
       4.3000m           1.000e+20                       2.3834                     0.     
       4.4000m           1.000e+20                       2.3834                     0.     
       4.5000m           1.000e+20                       2.3834                     0.     
       4.6000m           1.000e+20                       2.3834                     0.     
       4.7000m           1.000e+20                       2.3834                     0.     
       4.8000m           1.000e+20                       2.3834                     0.     
       4.9000m           1.000e+20                       2.3834                     0.     
       5.0000m           1.000e+20                       2.3834                     0.     
  
 ******  
 .title opa_open_loop

  ******  dc transfer curves tnom=  25.000 temp=  27.000 *****
x

        volt    voltage    
                     3     
   -5.00000m     -1.7915   
   -4.90000m     -1.7915   
   -4.80000m     -1.7915   
   -4.70000m     -1.7915   
   -4.60000m     -1.7915   
   -4.50000m     -1.7915   
   -4.40000m     -1.7915   
   -4.30000m     -1.7915   
   -4.20000m     -1.7915   
   -4.10000m     -1.7915   
   -4.00000m     -1.7915   
   -3.90000m     -1.7915   
   -3.80000m     -1.7915   
   -3.70000m     -1.7915   
   -3.60000m     -1.7915   
   -3.50000m     -1.7915   
   -3.40000m     -1.7915   
   -3.30000m     -1.7915   
   -3.20000m     -1.7915   
   -3.10000m     -1.7915   
   -3.00000m     -1.7915   
   -2.90000m     -1.7915   
   -2.80000m     -1.7915   
   -2.70000m     -1.7915   
   -2.60000m     -1.7915   
   -2.50000m     -1.7915   
   -2.40000m     -1.7915   
   -2.30000m     -1.7915   
   -2.20000m     -1.7915   
   -2.10000m     -1.7915   
   -2.00000m     -1.7915   
   -1.90000m     -1.7915   
   -1.80000m     -1.7915   
   -1.70000m     -1.7915   
   -1.60000m     -1.7915   
   -1.50000m     -1.7915   
   -1.40000m     -1.7915   
   -1.30000m     -1.7915   
   -1.20000m     -1.7915   
   -1.10000m     -1.7915   
   -1.00000m     -1.7915   
 -900.00000u     -1.7915   
 -800.00000u     -1.7915   
 -700.00000u     -1.7915   
 -600.00000u     -1.7915   
 -500.00000u     -1.7915   
 -400.00000u     -1.7915   
 -300.00000u     -1.7915   
 -200.00000u     -1.7915   
 -100.00000u     -1.7915   
 -8.6736e-19     -1.7915   
  100.00000u     -1.7915   
  200.00000u     -1.7915   
  300.00000u     -1.7915   
  400.00000u     -1.7915   
  500.00000u     -1.7915   
  600.00000u     -1.7915   
  700.00000u     -1.7915   
  800.00000u     -1.7915   
  900.00000u     -1.7915   
    1.00000m     -1.7915   
    1.10000m     -1.7915   
    1.20000m     -1.7915   
    1.30000m     -1.7915   
    1.40000m     -1.7915   
    1.50000m     -1.7915   
    1.60000m     -1.7915   
    1.70000m     -1.7915   
    1.80000m     -1.7915   
    1.90000m     -1.7915   
    2.00000m     -1.7915   
    2.10000m     -1.7915   
    2.20000m     -1.7915   
    2.30000m     -1.7915   
    2.40000m     -1.7915   
    2.50000m     -1.7915   
    2.60000m     -1.7915   
    2.70000m     -1.7915   
    2.80000m     -1.7915   
    2.90000m     -1.7915   
    3.00000m     -1.7915   
    3.10000m     -1.7915   
    3.20000m     -1.7915   
    3.30000m     -1.7915   
    3.40000m     -1.7915   
    3.50000m     -1.7915   
    3.60000m     -1.7915   
    3.70000m     -1.7915   
    3.80000m     -1.7915   
    3.90000m     -1.7915   
    4.00000m     -1.7915   
    4.10000m     -1.7915   
    4.20000m     -1.7915   
    4.30000m     -1.7915   
    4.40000m     -1.7915   
    4.50000m     -1.7915   
    4.60000m     -1.7915   
    4.70000m     -1.7915   
    4.80000m     -1.7915   
    4.90000m     -1.7915   
    5.00000m     -1.7915   
y
1****** HSPICE -- F-2011.09 32-BIT (Sep  5 2011) winnt ******                   
 ******  
 .title opa_open_loop

  ******  operating point information tnom=  25.000 temp=  27.000 *****
 ***** operating point status is all       simulation time is     0.     
    node    =voltage      node    =voltage      node    =voltage

 +0:1       =   0.      0:2       =   0.      0:3       =  -1.7915 
 +0:4       =   2.5000  0:5       =  -2.5000  1:3       =  -1.8216 
 +1:4       =  -1.1586  1:5       =  -1.1586  1:7       =  -3.5164 


 **** voltage sources

 subckt                                              
 element  0:vdd      0:vss      0:vvip     0:vvin    
  volts      2.5000     2.5000     0.         0.     
  current  -15.6333m  -15.6333m    0.         0.     
  power     39.0833m   39.0833m    0.         0.     

     total voltage source power dissipation=   78.1667m       watts



 **** current sources

 subckt   x1        
 element  1:ibias   
  volts     -1.0164 
  current   30.0000u
  power     30.4918u


     total current source power dissipation=  30.4918u       watts


 **** mosfets


 subckt   x1         x1         x1         x1         x1         x1        
 element  1:m1       1:m2       1:m3       1:m4       1:m5       1:m6      
 model    1:p08      1:p08      1:p08      1:p08      1:p08      1:p08     
 region       Cutoff     Cutoff   Saturati   Saturati     Linear   Saturati
  id         0.         0.        -1.8493m   -1.8493m  343.8224u  -11.9348m
  ibs        0.         0.         0.         0.         0.         0.     
  ibd       -1.8493m   -1.8493m   49.8812f   49.8812f   -3.3547m   58.5093f
  vgs        1.8216     1.8216    -3.6586    -3.6586    -1.0164    -3.6586 
  vds      662.9831m  662.9831m   -3.6586    -3.6586   678.3872m   -4.2915 
  vbs        0.         0.         0.         0.         0.         0.     
  vth     -485.4651m -485.4651m -697.1376m -697.1376m -480.5470m -697.1376m
  vdsat      0.         0.        -2.9615    -2.9615  -678.3872m   -2.9615 
  vod        2.3071     2.3071    -2.9615    -2.9615  -535.8479m   -2.9615 
  beta     305.5622u  305.5622u  421.7024u  421.7024u  579.1990u    2.7216m
  gam eff  570.0000m  570.0000m  570.0000m  570.0000m  570.0000m  570.0000m
  gm         0.         0.         1.2489m    1.2489m  392.9212u    8.0600m
  gds        0.         0.        78.1642u   78.1642u  326.9897u  491.3175u
