 ****** HSPICE -- F-2011.09 32-BIT (Sep  5 2011) winnt ******                   
  Copyright (C) 2011 Synopsys, Inc. All Rights Reserved.                        
  Unpublished-rights reserved under US copyright laws.
  This program is protected by law and is subject to the
  terms and conditions of the license agreement from Synopsys.
  Use of this program is your acceptance to be bound by the
  license agreement. HSPICE is the trademark of Synopsys, Inc.
  Input File: e:\ee\project\spice\2.0\gm_ac.sp                                  
  Command line options: -i e:\ee\project\spice\2.0\gm_ac.sp -o e:\ee\project\spice\2.0\gm_ac.lis
  lic:  
  lic: FLEXlm: v10.8 
  lic: USER:   shabi                HOSTNAME: Kunlin-Yuquan 
  lic: HOSTID: "581122b93f59 346f24e5c2cc 005056c00001 005056c00008 00ffe567be1a
  
  lic: Using FLEXlm license file: 
  lic: E:\EE\A3-H$pice2011.09\hspice2011_crack\hspice2011_crack\license1.dat 
  lic: Checkout 1 hspice 
  lic: License/Maintenance for hspice will expire on 31-dec-2030/2030.12 
  lic: NODE LOCKED license on hostid "581122b93f59 346f24e5c2cc 005056c00001 005
 0
  lic:   
 Init: read install configuration file: E:\EE\Hspice\meta.cfg
  **warning** (E:\EE\project\spice\2.0\ms018.mdl:20) Model n18 device geometries will not be checked against the limits set by lmin, lmax, wmin and wmax. To enable this check, add a period(.) to the model name(i.e. enable model selector).

 **warning**  runlvl smaller than 5, reset to 5  when accurate turned on
  **warning** (e:\ee\project\spice\2.0\gm_ac.sp:3) Global net name, "gnd", in subckt pin list. The pin will be connected to the local net. Recommend to not use global net names in subckt pin lists.

 **warning**  runlvl smaller than 5, reset to 5  when accurate turned on
1****** HSPICE -- F-2011.09 32-BIT (Sep  5 2011) winnt ******                   
 ******  
 .title gm_ac

  ******  circuit name directory
 circuit number to circuit name directory
   number circuitname                     definition         multiplier
        0 main circuit
        1 x1.                             gm_c_3th_lowpass   1.00 
        2 x1.xi45.                        ota                1.00 
        3 x1.xi49.                        ota                1.00 
        4 x1.xi46.                        ota                1.00 
        5 x1.xi47.                        ota                1.00 
        6 x1.xi1.                         ota                1.00 
        7 x1.xi44.                        ota                1.00 
        8 x1.xi48.                        ota                1.00 
  **warning** (e:\ee\project\spice\2.0\gm_ac.sp:40) Both nodes of element vgnd are connected together; Line ignored.
 

  
      
 **info** set option symb=1 internally to help for convergence.
 *****************************************************************
 ******  option summary
 ******
 runlvl  = 5         bypass  = 2         
  Opening plot unit= 79
 file=e:\ee\project\spice\2.0\gm_ac.pa0                                        

 **info** dc convergence successful
 you can increase the efficiency of the
 operating point calculation by setting dcon= 1
 in the .option statement
1****** HSPICE -- F-2011.09 32-BIT (Sep  5 2011) winnt ******                   
 ******  
 .title gm_ac

  ******  operating point information tnom=  25.000 temp=  27.000 *****
 ***** operating point status is all       simulation time is     0.     
    node    =voltage      node    =voltage      node    =voltage

 +0:ibias   = 581.4676m 0:vcmfb   = 900.0000m 0:vdd     =   1.8000 
 +0:vin_i   = 900.0000m 0:vin_ib  = 900.0000m 0:vout_i  = 899.8777m
 +0:vout_ib = 899.8777m 1:net055  = 899.8771m 1:net056  = 899.8771m
 +1:net83   = 899.8777m 1:net84   = 899.8777m 1:vout_ib/= 899.8777m
 +2:net0124 =   1.1936  2:net053  = 339.3166m 2:net065  = 339.3166m
 +2:net29   = 301.7963m 2:net39   = 301.7963m 3:net0124 =   1.1936 
 +3:net053  = 339.3168m 3:net065  = 339.3168m 3:net29   = 301.7968m
 +3:net39   = 301.7968m 4:net0124 =   1.1936  4:net053  = 339.3168m
 +4:net065  = 339.3168m 4:net29   = 301.7963m 4:net39   = 301.7963m
 +5:net0124 =   1.1936  5:net053  = 339.3168m 5:net065  = 339.3168m
 +5:net29   = 301.7968m 5:net39   = 301.7968m 6:net0124 =   1.1936 
 +6:net053  = 339.3166m 6:net065  = 339.3166m 6:net29   = 301.8932m
 +6:net39   = 301.8932m 7:net0124 =   1.1936  7:net053  = 339.3166m
 +7:net065  = 339.3166m 7:net29   = 301.7968m 7:net39   = 301.7968m
 +8:net0124 =   1.1936  8:net053  = 339.3168m 8:net065  = 339.3168m
 +8:net29   = 301.7968m 8:net39   = 301.7968m


 maximum nodal capacitance=   7.100E-11         on node     0:vdd             

    nodal  capacitance table 

    node    =    cap      node    =    cap      node    =    cap

 +0:ibias   =   5.0047p 0:vcmfb   =  11.9235p 0:vdd     =  70.9999p
 +0:vin_i   = 926.4853f 0:vin_ib  = 926.4853f 0:vout_i  =  12.8972p
 +0:vout_ib =  11.7826p 1:net055  =  14.0118p 1:net056  =  14.0118p
 +1:net83   =   8.4132p 1:net84   =   8.4132p 1:vout_ib/=   1.1146p
 +2:net0124 =   6.4646p 2:net053  =   1.8288p 2:net065  =   1.8288p
 +2:net29   =   1.0407p 2:net39   =   1.0407p 3:net0124 =   6.4645p
 +3:net053  =   1.8288p 3:net065  =   1.8288p 3:net29   =   1.0407p
 +3:net39   =   1.0407p 4:net0124 =   6.4645p 4:net053  =   1.8288p
 +4:net065  =   1.8288p 4:net29   =   1.0407p 4:net39   =   1.0407p
 +5:net0124 =   6.4645p 5:net053  =   1.8288p 5:net065  =   1.8288p
 +5:net29   =   1.0407p 5:net39   =   1.0407p 6:net0124 =   6.4646p
 +6:net053  =   1.8288p 6:net065  =   1.8288p 6:net29   =   1.0407p
 +6:net39   =   1.0407p 7:net0124 =   6.4646p 7:net053  =   1.8288p
 +7:net065  =   1.8288p 7:net29   =   1.0407p 7:net39   =   1.0407p
 +8:net0124 =   6.4645p 8:net053  =   1.8288p 8:net065  =   1.8288p
 +8:net29   =   1.0407p 8:net39   =   1.0407p

 

 **** voltage sources

 subckt                                              
 element  0:vvdd     0:vvcmfb   0:vvin_i   0:vvin_ib 
  volts      1.8000   900.0000m  900.0000m  900.0000m
  current   -3.4440m    0.         0.         0.     
  power      6.1992m    0.         0.         0.     

     total voltage source power dissipation=    6.1992m       watts



 **** current sources

 subckt             
 element  0:iibias  
  volts      1.2185 
  current  700.0000u
  power   -852.9727u


     total current source power dissipation=-852.9727u       watts

 **** resistors

 subckt   x1.xi45    x1.xi49    x1.xi46    x1.xi47    x1.xi1     x1.xi44   
 element  2:r1       3:r1       4:r1       5:r1       6:r1       7:r1      
  r value    9.0000k    9.0000k    9.0000k    9.0000k    9.0000k    9.0000k
  v drop     1.2611p  657.7516f   -1.3076p -268.5629f   -7.9381f  280.7754f
  current  140.1225a   73.0835a -145.2850a  -29.8403a -8.820e-19   31.1973a
  power    1.767e-28    0.       1.900e-28    0.         0.         0.     

 subckt   x1.xi48   
 element  8:r1      
  r value    9.0000k
  v drop   396.1276f
  current   44.0142a
  power      0.     



 **** mosfets


 subckt   x1.xi45    x1.xi45    x1.xi45    x1.xi45    x1.xi45    x1.xi45   
 element  2:mbias    2:m1       2:m2       2:m3       2:m4       2:m5      
 model    0:n18      0:n18      0:n18      0:n18      0:n18      0:p18     
 region     Saturati   Saturati   Saturati   Saturati   Saturati   Saturati
  id       100.0000u   97.7536u   97.7536u   97.7536u   97.7536u  -97.7541u
  ibs     -1.360e-19  -76.7802a  -76.7802a -1.330e-19 -1.330e-19  3.689e-19
  ibd      -38.8362a -454.8341a -454.8341a  -20.7217a  -20.7217a   74.4809a
  vgs      581.4676m  598.0807m  598.0807m  581.4676m  581.4676m -606.4422m
  vds      581.4676m  598.0807m  598.0807m  301.7963m  301.7963m -900.1229m
  vbs        0.      -301.7963m -301.7963m    0.         0.         0.     
  vth      412.5916m  486.4164m  486.4164m  412.5935m  412.5935m -412.9211m
  vdsat    169.3377m  132.3241m  132.3241m  169.3392m  169.3392m -186.7624m
  vod      168.8760m  111.6643m  111.6643m  168.8741m  168.8741m -193.5211m
  beta       6.8061m   12.7436m   12.7436m    6.8061m    6.8061m    5.5146m
  gam eff  773.0806m  788.7775m  788.7775m  773.0804m  773.0804m  575.5484m
  gm         1.0117m    1.3176m    1.3176m  983.8434u  983.8434u  900.9070u
  gds        5.2290u    3.9061u    3.9061u   14.9670u   14.9670u    1.9688u
  gmb      300.0504u  334.8016u  334.8016u  291.9301u  291.9301u  289.4597u
  cdtot     21.6401f   76.6370f   76.6370f   24.3340f   24.3340f  186.7865f
  cgtot    138.2412f  926.4862f  926.4862f  138.8747f  138.8747f    2.0396p
  cstot    159.4950f    1.0164p    1.0164p  159.2722f  159.2722f    2.3587p
  cbtot     78.5870f  415.0232f  415.0232f   80.1296f   80.1296f  973.7845f
  cgs      115.9883f  783.4692f  783.4692f  116.2663f  116.2663f    1.7975p
  cgd        7.4300f   27.9928f   27.9928f    7.9689f    7.9689f   66.6359f



 subckt   x1.xi45    x1.xi45    x1.xi45    x1.xi45    x1.xi45    x1.xi45   
 element  2:m6       2:m7       2:m8       2:m9       2:m10      2:m11     
 model    0:p18      0:p18      0:n18      0:n18      0:n18      0:n18     
 region     Saturati   Saturati   Saturati   Saturati   Saturati   Saturati
  id       -97.7541u  -97.1532u   49.6643u   48.5766u   48.5766u   49.6643u
  ibs      3.689e-19  3.666e-19  -76.7810a  -76.7810a  -76.7810a  -76.7810a
  ibd       74.4809a   67.8020a   -3.4887n   -2.6098p   -2.6098p   -3.4887n
  vgs     -606.4422m -606.4422m  560.5605m  560.6834m  560.6834m  560.5605m
  vds     -900.1229m -606.4422m    1.4607   854.2412m  854.2412m    1.4607 
  vbs        0.         0.      -339.3166m -339.3166m -339.3166m -339.3166m
  vth     -412.9211m -412.9208m  496.1390m  496.1385m  496.1385m  496.1390m
  vdsat   -186.7624m -186.7633m  100.3449m  100.4241m  100.4241m  100.3449m
  vod     -193.5211m -193.5214m   64.4216m   64.5449m   64.5449m   64.4216m
  beta       5.5146m    5.5146m   12.7809m   12.7808m   12.7808m   12.7809m
  gam eff  575.5484m  575.5484m  790.4800m  790.4799m  790.4799m  790.4800m
  gm       900.9070u  895.9005u  838.4619u  824.0520u  824.0520u  838.4619u
  gds        1.9688u    2.2003u    1.9383u    2.0188u    2.0188u    1.9383u
  gmb      289.4597u  287.7624u  209.9908u  206.4000u  206.4000u  209.9908u
  cdtot    186.7865f  198.5578f   67.9413f   72.9384f   72.9384f   67.9413f
  cgtot      2.0396p    2.0409p  851.2019f  851.6821f  851.6821f  851.2019f
  cstot      2.3587p    2.3580p  902.4458f  902.7424f  902.7424f  902.4458f
  cbtot    973.7845f  984.0471f  399.5026f  404.4459f  404.4459f  399.5026f
  cgs        1.7975p    1.7984p  689.3016f  689.8659f  689.8659f  689.3016f
  cgd       66.6359f   67.4074f   27.7270f   27.7678f   27.7678f   27.7270f



 subckt   x1.xi45    x1.xi45    x1.xi49    x1.xi49    x1.xi49    x1.xi49   
 element  2:mtail1   2:mtail2   3:mbias    3:m1       3:m2       3:m3      
 model    0:n18      0:n18      0:n18      0:n18      0:n18      0:n18     
 region     Saturati   Saturati   Saturati   Saturati   Saturati   Saturati
  id        98.2409u   98.2409u  100.0000u   97.7536u   97.7536u   97.7536u
  ibs     -1.337e-19 -1.337e-19 -1.360e-19  -76.7802a  -76.7802a -1.330e-19
  ibd      -20.7232a  -20.7232a  -38.8362a -454.8365a -454.8365a  -20.7217a
  vgs      581.4676m  581.4676m  581.4676m  598.0809m  598.0809m  581.4676m
  vds      339.3166m  339.3166m  581.4676m  598.0809m  598.0809m  301.7968m
  vbs        0.         0.         0.      -301.7968m -301.7968m    0.     
  vth      412.5933m  412.5933m  412.5916m  486.4165m  486.4165m  412.5935m
  vdsat    169.3387m  169.3387m  169.3377m  132.3241m  132.3241m  169.3392m
  vod      168.8743m  168.8743m  168.8760m  111.6643m  111.6643m  168.8741m
  beta       6.8061m    6.8061m    6.8061m   12.7436m   12.7436m    6.8061m
  gam eff  773.0804m  773.0804m  773.0806m  788.7775m  788.7775m  773.0804m
  gm       991.0903u  991.0903u    1.0117m    1.3176m    1.3176m  983.8435u
  gds       11.4112u   11.4112u    5.2290u    3.9061u    3.9061u   14.9670u
  gmb      294.0396u  294.0396u  300.0504u  334.8015u  334.8015u  291.9301u
  cdtot     23.6369f   23.6369f   21.6401f   76.6370f   76.6370f   24.3340f
  cgtot    138.6602f  138.6602f  138.2412f  926.4862f  926.4862f  138.8747f
  cstot    159.3312f  159.3312f  159.4950f    1.0164p    1.0164p  159.2722f
  cbtot     79.8717f   79.8717f   78.5870f  415.0231f  415.0231f   80.1296f
  cgs      116.1931f  116.1931f  115.9883f  783.4692f  783.4692f  116.2663f
  cgd        7.7656f    7.7656f    7.4300f   27.9928f   27.9928f    7.9689f



 subckt   x1.xi49    x1.xi49    x1.xi49    x1.xi49    x1.xi49    x1.xi49   
 element  3:m4       3:m5       3:m6       3:m7       3:m8       3:m9      
 model    0:n18      0:p18      0:p18      0:p18      0:n18      0:n18     
 region     Saturati   Saturati   Saturati   Saturati   Saturati   Saturati
  id        97.7536u  -97.7536u  -97.7536u  -97.1527u   49.6646u   48.5763u
  ibs     -1.330e-19  3.689e-19  3.689e-19  3.666e-19  -76.7810a  -76.7810a
  ibd      -20.7217a   74.4808a   74.4808a   67.8020a   -3.4887n   -2.6098p
  vgs      581.4676m -606.4417m -606.4417m -606.4417m  560.5609m  560.6832m
  vds      301.7968m -900.1223m -900.1223m -606.4417m    1.4607   854.2415m
  vbs        0.         0.         0.         0.      -339.3168m -339.3168m
  vth      412.5935m -412.9211m -412.9211m -412.9208m  496.1390m  496.1386m
  vdsat    169.3392m -186.7620m -186.7620m -186.7629m  100.3450m  100.4239m
  vod      168.8741m -193.5206m -193.5206m -193.5209m   64.4218m   64.5446m
  beta       6.8061m    5.5146m    5.5146m    5.5146m   12.7809m   12.7808m
  gam eff  773.0804m  575.5484m  575.5484m  575.5484m  790.4800m  790.4799m
  gm       983.8435u  900.9047u  900.9047u  895.8982u  838.4649u  824.0491u
  gds       14.9670u    1.9688u    1.9688u    2.2003u    1.9384u    2.0188u
  gmb      291.9301u  289.4590u  289.4590u  287.7617u  209.9916u  206.3993u
  cdtot     24.3340f  186.7865f  186.7865f  198.5578f   67.9413f   72.9384f
  cgtot    138.8747f    2.0396p    2.0396p    2.0409p  851.2026f  851.6814f
  cstot    159.2722f    2.3587p    2.3587p    2.3580p  902.4468f  902.7414f
  cbtot     80.1296f  973.7845f  973.7845f  984.0471f  399.5026f  404.4458f
  cgs      116.2663f    1.7975p    1.7975p    1.7984p  689.3025f  689.8651f
  cgd        7.9689f   66.6359f   66.6359f   67.4074f   27.7270f   27.7678f



 subckt   x1.xi49    x1.xi49    x1.xi49    x1.xi49    x1.xi46    x1.xi46   
 element  3:m10      3:m11      3:mtail1   3:mtail2   4:mbias    4:m1      
 model    0:n18      0:n18      0:n18      0:n18      0:n18      0:n18     
 region     Saturati   Saturati   Saturati   Saturati   Saturati   Saturati
  id        48.5763u   49.6646u   98.2409u   98.2409u  100.0000u   97.7536u
  ibs      -76.7810a  -76.7810a -1.337e-19 -1.337e-19 -1.360e-19  -76.7802a
  ibd       -2.6098p   -3.4887n  -20.7232a  -20.7232a  -38.8362a -454.8457a
  vgs      560.6832m  560.5609m  581.4676m  581.4676m  581.4676m  598.0807m
  vds      854.2415m    1.4607   339.3168m  339.3168m  581.4676m  598.0813m
  vbs     -339.3168m -339.3168m    0.         0.         0.      -301.7963m
  vth      496.1386m  496.1390m  412.5933m  412.5933m  412.5916m  486.4164m
  vdsat    100.4239m  100.3450m  169.3387m  169.3387m  169.3377m  132.3241m
  vod       64.5446m   64.4218m  168.8743m  168.8743m  168.8760m  111.6643m
  beta      12.7808m   12.7809m    6.8061m    6.8061m    6.8061m   12.7436m
  gam eff  790.4799m  790.4800m  773.0804m  773.0804m  773.0806m  788.7775m
  gm       824.0491u  838.4649u  991.0903u  991.0903u    1.0117m    1.3176m
  gds        2.0188u    1.9384u   11.4112u   11.4112u    5.2290u    3.9061u
  gmb      206.3993u  209.9916u  294.0396u  294.0396u  300.0504u  334.8016u
  cdtot     72.9384f   67.9413f   23.6369f   23.6369f   21.6401f   76.6370f
  cgtot    851.6814f  851.2026f  138.6602f  138.6602f  138.2412f  926.4862f
  cstot    902.7414f  902.4468f  159.3312f  159.3312f  159.4950f    1.0164p
  cbtot    404.4458f  399.5026f   79.8717f   79.8717f   78.5870f  415.0232f
  cgs      689.8651f  689.3025f  116.1931f  116.1931f  115.9883f  783.4692f
  cgd       27.7678f   27.7270f    7.7656f    7.7656f    7.4300f   27.9928f



 subckt   x1.xi46    x1.xi46    x1.xi46    x1.xi46    x1.xi46    x1.xi46   
 element  4:m2       4:m3       4:m4       4:m5       4:m6       4:m7      
 model    0:n18      0:n18      0:n18      0:p18      0:p18      0:p18     
 region     Saturati   Saturati   Saturati   Saturati   Saturati   Saturati
  id        97.7536u   97.7536u   97.7536u  -97.7536u  -97.7536u  -97.1527u
  ibs      -76.7802a -1.330e-19 -1.330e-19  3.689e-19  3.689e-19  3.666e-19
  ibd     -454.8457a  -20.7217a  -20.7217a   74.4808a   74.4808a   67.8020a
  vgs      598.0807m  581.4676m  581.4676m -606.4417m -606.4417m -606.4417m
  vds      598.0813m  301.7963m  301.7963m -900.1223m -900.1223m -606.4417m
  vbs     -301.7963m    0.         0.         0.         0.         0.     
  vth      486.4164m  412.5935m  412.5935m -412.9211m -412.9211m -412.9208m
  vdsat    132.3241m  169.3392m  169.3392m -186.7620m -186.7620m -186.7629m
  vod      111.6643m  168.8741m  168.8741m -193.5206m -193.5206m -193.5209m
  beta      12.7436m    6.8061m    6.8061m    5.5146m    5.5146m    5.5146m
  gam eff  788.7775m  773.0804m  773.0804m  575.5484m  575.5484m  575.5484m
  gm         1.3176m  983.8434u  983.8434u  900.9047u  900.9047u  895.8982u
  gds        3.9061u   14.9670u   14.9670u    1.9688u    1.9688u    2.2003u
  gmb      334.8016u  291.9301u  291.9301u  289.4590u  289.4590u  287.7617u
  cdtot     76.6370f   24.3340f   24.3340f  186.7865f  186.7865f  198.5578f
  cgtot    926.4862f  138.8747f  138.8747f    2.0396p    2.0396p    2.0409p
  cstot      1.0164p  159.2722f  159.2722f    2.3587p    2.3587p    2.3580p
  cbtot    415.0232f   80.1296f   80.1296f  973.7845f  973.7845f  984.0471f
  cgs      783.4692f  116.2663f  116.2663f    1.7975p    1.7975p    1.7984p
  cgd       27.9928f    7.9689f    7.9689f   66.6359f   66.6359f   67.4074f



 subckt   x1.xi46    x1.xi46    x1.xi46    x1.xi46    x1.xi46    x1.xi46   
 element  4:m8       4:m9       4:m10      4:m11      4:mtail1   4:mtail2  
 model    0:n18      0:n18      0:n18      0:n18      0:n18      0:n18     
 region     Saturati   Saturati   Saturati   Saturati   Saturati   Saturati
  id        49.6646u   48.5763u   48.5763u   49.6646u   98.2409u   98.2409u
  ibs      -76.7810a  -76.7810a  -76.7810a  -76.7810a -1.337e-19 -1.337e-19
  ibd       -3.4887n   -2.6098p   -2.6098p   -3.4887n  -20.7232a  -20.7232a
  vgs      560.5609m  560.6832m  560.6832m  560.5609m  581.4676m  581.4676m
  vds        1.4607   854.2415m  854.2415m    1.4607   339.3168m  339.3168m
  vbs     -339.3168m -339.3168m -339.3168m -339.3168m    0.         0.     
  vth      496.1390m  496.1386m  496.1386m  496.1390m  412.5933m  412.5933m
  vdsat    100.3450m  100.4239m  100.4239m  100.3450m  169.3387m  169.3387m
  vod       64.4218m   64.5446m   64.5446m   64.4218m  168.8743m  168.8743m
  beta      12.7809m   12.7808m   12.7808m   12.7809m    6.8061m    6.8061m
  gam eff  790.4800m  790.4799m  790.4799m  790.4800m  773.0804m  773.0804m
  gm       838.4649u  824.0491u  824.0491u  838.4649u  991.0903u  991.0903u
  gds        1.9384u    2.0188u    2.0188u    1.9384u   11.4112u   11.4112u
  gmb      209.9916u  206.3993u  206.3993u  209.9916u  294.0396u  294.0396u
  cdtot     67.9413f   72.9384f   72.9384f   67.9413f   23.6369f   23.6369f
  cgtot    851.2026f  851.6814f  851.6814f  851.2026f  138.6602f  138.6602f
  cstot    902.4468f  902.7414f  902.7414f  902.4468f  159.3312f  159.3312f
  cbtot    399.5026f  404.4458f  404.4458f  399.5026f   79.8717f   79.8717f
  cgs      689.3025f  689.8651f  689.8651f  689.3025f  116.1931f  116.1931f
  cgd       27.7270f   27.7678f   27.7678f   27.7270f    7.7656f    7.7656f



 subckt   x1.xi47    x1.xi47    x1.xi47    x1.xi47    x1.xi47    x1.xi47   
 element  5:mbias    5:m1       5:m2       5:m3       5:m4       5:m5      
